 time            v(Ain)          v(SH_pos)       v(COMPout)      v(D0)           v(d1)           v(d2)           v(d3)          
 2.39001759e-05  5.16000000e-01  8.21397581e-01  1.42949522e-02  5.95069863e-07  1.79999985e+00  1.79999941e+00  1.79999967e+00 
 2.39011759e-05  5.16000000e-01  8.21397584e-01  1.42947808e-02  4.44249804e-07  1.79999963e+00  1.80000043e+00  1.79999979e+00 
 2.39021759e-05  5.16000000e-01  8.21397584e-01  1.42946159e-02  5.94715362e-07  1.79999985e+00  1.79999941e+00  1.79999967e+00 
 2.39031759e-05  5.16000000e-01  8.21397587e-01  1.42944446e-02  4.43932080e-07  1.79999963e+00  1.80000043e+00  1.79999979e+00 
 2.39041759e-05  5.16000000e-01  8.21397586e-01  1.42942798e-02  5.94361760e-07  1.79999985e+00  1.79999941e+00  1.79999967e+00 
 2.39051759e-05  5.16000000e-01  8.21397590e-01  1.42941086e-02  4.43615310e-07  1.79999963e+00  1.80000043e+00  1.79999979e+00 
 2.39061759e-05  5.16000000e-01  8.21397589e-01  1.42939439e-02  5.94009182e-07  1.79999985e+00  1.79999941e+00  1.79999967e+00 
 2.39071759e-05  5.16000000e-01  8.21397593e-01  1.42937728e-02  4.43299499e-07  1.79999963e+00  1.80000043e+00  1.79999979e+00 
 2.39081759e-05  5.16000000e-01  8.21397592e-01  1.42936082e-02  5.93657599e-07  1.79999985e+00  1.79999941e+00  1.79999967e+00 
 2.39091759e-05  5.16000000e-01  8.21397596e-01  1.42934373e-02  4.42984673e-07  1.79999963e+00  1.80000043e+00  1.79999979e+00 
 2.39101759e-05  5.16000000e-01  8.21397595e-01  1.42932728e-02  5.93306914e-07  1.79999985e+00  1.79999941e+00  1.79999967e+00 
 2.39111759e-05  5.16000000e-01  8.21397598e-01  1.42931019e-02  4.42670846e-07  1.79999963e+00  1.80000043e+00  1.79999979e+00 
 2.39121759e-05  5.16000000e-01  8.21397598e-01  1.42929375e-02  5.92957185e-07  1.79999985e+00  1.79999941e+00  1.79999967e+00 
 2.39131759e-05  5.16000000e-01  8.21397601e-01  1.42927667e-02  4.42357908e-07  1.79999963e+00  1.80000043e+00  1.79999979e+00 
 2.39141759e-05  5.16000000e-01  8.21397600e-01  1.42926024e-02  5.92608511e-07  1.79999985e+00  1.79999941e+00  1.79999967e+00 
 2.39151759e-05  5.16000000e-01  8.21397604e-01  1.42924318e-02  4.42045933e-07  1.79999963e+00  1.80000043e+00  1.79999979e+00 
 2.39161759e-05  5.16000000e-01  8.21397603e-01  1.42922676e-02  5.92260705e-07  1.79999985e+00  1.79999941e+00  1.79999967e+00 
 2.39171759e-05  5.16000000e-01  8.21397607e-01  1.42920970e-02  4.41734965e-07  1.79999963e+00  1.80000043e+00  1.79999979e+00 
 2.39181759e-05  5.16000000e-01  8.21397606e-01  1.42919329e-02  5.91913888e-07  1.79999985e+00  1.79999941e+00  1.79999967e+00 
 2.39191759e-05  5.16000000e-01  8.21397609e-01  1.42917625e-02  4.41424843e-07  1.79999963e+00  1.80000043e+00  1.79999979e+00 
 2.39201759e-05  5.16000000e-01  8.21397609e-01  1.42915985e-02  5.91568075e-07  1.79999985e+00  1.79999941e+00  1.79999967e+00 
 2.39211759e-05  5.16000000e-01  8.21397612e-01  1.42914281e-02  4.41115674e-07  1.79999963e+00  1.80000043e+00  1.79999979e+00 
 2.39221759e-05  5.16000000e-01  8.21397611e-01  1.42912642e-02  5.91223209e-07  1.79999985e+00  1.79999941e+00  1.79999967e+00 
 2.39231759e-05  5.16000000e-01  8.21397615e-01  1.42910940e-02  4.40807408e-07  1.79999963e+00  1.80000043e+00  1.79999979e+00 
 2.39241759e-05  5.16000000e-01  8.21397614e-01  1.42909302e-02  5.90879310e-07  1.79999985e+00  1.79999941e+00  1.79999967e+00 
 2.39251759e-05  5.16000000e-01  8.21397618e-01  1.42907600e-02  4.40500034e-07  1.79999963e+00  1.80000043e+00  1.79999979e+00 
 2.39261759e-05  5.16000000e-01  8.21397617e-01  1.42905964e-02  5.90536343e-07  1.79999985e+00  1.79999941e+00  1.79999967e+00 
 2.39271759e-05  5.16000000e-01  8.21397621e-01  1.42904263e-02  4.40193665e-07  1.79999963e+00  1.80000043e+00  1.79999979e+00 
 2.39281759e-05  5.16000000e-01  8.21397620e-01  1.42902627e-02  5.90194244e-07  1.79999985e+00  1.79999941e+00  1.79999967e+00 
 2.39291759e-05  5.16000000e-01  8.21397623e-01  1.42900928e-02  4.39888246e-07  1.79999963e+00  1.80000043e+00  1.79999979e+00 
 2.39301759e-05  5.16000000e-01  8.21397623e-01  1.42899293e-02  5.89853084e-07  1.79999985e+00  1.79999941e+00  1.79999967e+00 
 2.39311759e-05  5.16000000e-01  8.21397626e-01  1.42897595e-02  4.39583695e-07  1.79999963e+00  1.80000043e+00  1.79999979e+00 
 2.39321759e-05  5.16000000e-01  8.21397625e-01  1.42895961e-02  5.89512889e-07  1.79999985e+00  1.79999941e+00  1.79999967e+00 
 2.39331759e-05  5.16000000e-01  8.21397629e-01  1.42894264e-02  4.39280041e-07  1.79999963e+00  1.80000043e+00  1.79999979e+00 
 2.39341759e-05  5.16000000e-01  8.21397628e-01  1.42892631e-02  5.89173624e-07  1.79999985e+00  1.79999941e+00  1.79999967e+00 
 2.39351759e-05  5.16000000e-01  8.21397632e-01  1.42890934e-02  4.38977317e-07  1.79999963e+00  1.80000043e+00  1.79999979e+00 
 2.39361759e-05  5.16000000e-01  8.21397631e-01  1.42889303e-02  5.88835244e-07  1.79999985e+00  1.79999941e+00  1.79999967e+00 
 2.39371759e-05  5.16000000e-01  8.21397634e-01  1.42887607e-02  4.38675543e-07  1.79999963e+00  1.80000043e+00  1.79999979e+00 
 2.39381759e-05  5.16000000e-01  8.21397634e-01  1.42885976e-02  5.88497744e-07  1.79999985e+00  1.79999941e+00  1.79999967e+00 
 2.39391759e-05  5.16000000e-01  8.21397637e-01  1.42884282e-02  4.38374660e-07  1.79999963e+00  1.80000043e+00  1.79999979e+00 
 2.39401759e-05  5.16000000e-01  8.21397636e-01  1.42882652e-02  5.88161177e-07  1.79999985e+00  1.79999941e+00  1.79999967e+00 
 2.39411759e-05  5.16000000e-01  8.21397640e-01  1.42880959e-02  4.38074672e-07  1.79999963e+00  1.80000043e+00  1.79999979e+00 
 2.39421759e-05  5.16000000e-01  8.21397639e-01  1.42879330e-02  5.87825556e-07  1.79999985e+00  1.79999941e+00  1.79999967e+00 
 2.39431759e-05  5.16000000e-01  8.21397643e-01  1.42877638e-02  4.37775525e-07  1.79999963e+00  1.80000043e+00  1.79999979e+00 
 2.39441759e-05  5.16000000e-01  8.21397642e-01  1.42876010e-02  5.87490818e-07  1.79999985e+00  1.79999941e+00  1.79999967e+00 
 2.39451759e-05  5.16000000e-01  8.21397646e-01  1.42874319e-02  4.37477334e-07  1.79999963e+00  1.80000043e+00  1.79999979e+00 
 2.39461759e-05  5.16000000e-01  8.21397645e-01  1.42872692e-02  5.87156980e-07  1.79999985e+00  1.79999941e+00  1.79999967e+00 
 2.39471759e-05  5.16000000e-01  8.21397648e-01  1.42871002e-02  4.37179998e-07  1.79999963e+00  1.80000043e+00  1.79999979e+00 
 2.39481759e-05  5.16000000e-01  8.21397648e-01  1.42869376e-02  5.86824024e-07  1.79999985e+00  1.79999941e+00  1.79999967e+00 
 2.39491759e-05  5.16000000e-01  8.21397651e-01  1.42867687e-02  4.36883558e-07  1.79999963e+00  1.80000043e+00  1.79999979e+00 
 2.39501759e-05  5.16000000e-01  8.21397650e-01  1.42866062e-02  5.86492012e-07  1.79999985e+00  1.79999941e+00  1.79999967e+00 
 2.39511759e-05  5.16000000e-01  8.21397654e-01  1.42864374e-02  4.36587946e-07  1.79999963e+00  1.80000043e+00  1.79999979e+00 
 2.39521759e-05  5.16000000e-01  8.21397653e-01  1.42862751e-02  5.86160879e-07  1.79999985e+00  1.79999941e+00  1.79999967e+00 
 2.39531759e-05  5.16000000e-01  8.21397657e-01  1.42861064e-02  4.36293212e-07  1.79999963e+00  1.80000043e+00  1.79999979e+00 
 2.39541759e-05  5.16000000e-01  8.21397656e-01  1.42859441e-02  5.85830675e-07  1.79999985e+00  1.79999941e+00  1.79999967e+00 
 2.39551759e-05  5.16000000e-01  8.21397659e-01  1.42857755e-02  4.35999351e-07  1.79999963e+00  1.80000043e+00  1.79999979e+00 
 2.39561759e-05  5.16000000e-01  8.21397659e-01  1.42856133e-02  5.85501291e-07  1.79999985e+00  1.79999941e+00  1.79999967e+00 
 2.39571759e-05  5.16000000e-01  8.21397662e-01  1.42854448e-02  4.35706394e-07  1.79999963e+00  1.80000043e+00  1.79999979e+00 
 2.39581759e-05  5.16000000e-01  8.21397662e-01  1.42852827e-02  5.85172794e-07  1.79999985e+00  1.79999941e+00  1.79999967e+00 
 2.39591759e-05  5.16000000e-01  8.21397665e-01  1.42851143e-02  4.35414300e-07  1.79999963e+00  1.80000043e+00  1.79999979e+00 
 2.39601759e-05  5.16000000e-01  8.21397664e-01  1.42849523e-02  5.84845192e-07  1.79999985e+00  1.79999941e+00  1.79999967e+00 
 2.39611759e-05  5.16000000e-01  8.21397668e-01  1.42847840e-02  4.35123029e-07  1.79999963e+00  1.80000043e+00  1.79999979e+00 
 2.39621759e-05  5.16000000e-01  8.21397667e-01  1.42846221e-02  5.84518469e-07  1.79999985e+00  1.79999941e+00  1.79999967e+00 
 2.39631759e-05  5.16000000e-01  8.21397671e-01  1.42844539e-02  4.34832607e-07  1.79999963e+00  1.80000043e+00  1.79999979e+00 
 2.39641759e-05  5.16000000e-01  8.21397670e-01  1.42842921e-02  5.84192600e-07  1.79999986e+00  1.79999941e+00  1.79999967e+00 
 2.39651759e-05  5.16000000e-01  8.21397673e-01  1.42841240e-02  4.34543097e-07  1.79999963e+00  1.80000043e+00  1.79999979e+00 
 2.39661759e-05  5.16000000e-01  8.21397673e-01  1.42839623e-02  5.83867562e-07  1.79999986e+00  1.79999941e+00  1.79999967e+00 
 2.39671759e-05  5.16000000e-01  8.21397676e-01  1.42837943e-02  4.34254443e-07  1.79999963e+00  1.80000043e+00  1.79999979e+00 
 2.39681759e-05  5.16000000e-01  8.21397675e-01  1.42836327e-02  5.83543386e-07  1.79999986e+00  1.79999941e+00  1.79999967e+00 
 2.39691759e-05  5.16000000e-01  8.21397679e-01  1.42834649e-02  4.33966619e-07  1.79999963e+00  1.80000043e+00  1.79999979e+00 
 2.39701759e-05  5.16000000e-01  8.21397678e-01  1.42833033e-02  5.83220130e-07  1.79999986e+00  1.79999941e+00  1.79999967e+00 
 2.39711759e-05  5.16000000e-01  8.21397682e-01  1.42831356e-02  4.33679585e-07  1.79999963e+00  1.80000043e+00  1.79999979e+00 
 2.39721759e-05  5.16000000e-01  8.21397681e-01  1.42829742e-02  5.82897716e-07  1.79999986e+00  1.79999941e+00  1.79999967e+00 
 2.39731759e-05  5.16000000e-01  8.21397684e-01  1.42828065e-02  4.33393393e-07  1.79999963e+00  1.80000043e+00  1.79999979e+00 
 2.39741759e-05  5.16000000e-01  8.21397684e-01  1.42826452e-02  5.82576130e-07  1.79999986e+00  1.79999941e+00  1.79999967e+00 
 2.39751759e-05  5.16000000e-01  8.21397687e-01  1.42824776e-02  4.33108082e-07  1.79999963e+00  1.80000043e+00  1.79999979e+00 
 2.39761759e-05  5.16000000e-01  8.21397686e-01  1.42823164e-02  5.82255407e-07  1.79999986e+00  1.79999941e+00  1.79999967e+00 
 2.39771759e-05  5.16000000e-01  8.21397690e-01  1.42821489e-02  4.32823610e-07  1.79999963e+00  1.80000043e+00  1.79999979e+00 
 2.39781759e-05  5.16000000e-01  8.21397689e-01  1.42819878e-02  5.81935496e-07  1.79999986e+00  1.79999941e+00  1.79999967e+00 
 2.39791759e-05  5.16000000e-01  8.21397693e-01  1.42818204e-02  4.32539939e-07  1.79999963e+00  1.80000043e+00  1.79999979e+00 
 2.39801759e-05  5.16000000e-01  8.21397692e-01  1.42816594e-02  5.81616437e-07  1.79999986e+00  1.79999941e+00  1.79999967e+00 
 2.39811759e-05  5.16000000e-01  8.21397696e-01  1.42814921e-02  4.32257125e-07  1.79999963e+00  1.80000043e+00  1.79999979e+00 
 2.39821759e-05  5.16000000e-01  8.21397695e-01  1.42813312e-02  5.81298247e-07  1.79999986e+00  1.79999941e+00  1.79999967e+00 
 2.39831759e-05  5.16000000e-01  8.21397698e-01  1.42811640e-02  4.31975064e-07  1.79999963e+00  1.80000043e+00  1.79999979e+00 
 2.39841759e-05  5.16000000e-01  8.21397698e-01  1.42810032e-02  5.80980888e-07  1.79999986e+00  1.79999941e+00  1.79999967e+00 
 2.39851759e-05  5.16000000e-01  8.21397701e-01  1.42808361e-02  4.31693856e-07  1.79999963e+00  1.80000043e+00  1.79999979e+00 
 2.39861759e-05  5.16000000e-01  8.21397700e-01  1.42806754e-02  5.80664396e-07  1.79999986e+00  1.79999941e+00  1.79999967e+00 
 2.39871759e-05  5.16000000e-01  8.21397704e-01  1.42805084e-02  4.31413379e-07  1.79999964e+00  1.80000043e+00  1.79999979e+00 
 2.39881759e-05  5.16000000e-01  8.21397703e-01  1.42803478e-02  5.80348776e-07  1.79999986e+00  1.79999941e+00  1.79999967e+00 
 2.39891759e-05  5.16000000e-01  8.21397707e-01  1.42801809e-02  4.31133781e-07  1.79999964e+00  1.80000043e+00  1.79999979e+00 
 2.39901759e-05  5.16000000e-01  8.21397706e-01  1.42800204e-02  5.80033856e-07  1.79999986e+00  1.79999941e+00  1.79999967e+00 
 2.39911759e-05  5.16000000e-01  8.21397709e-01  1.42798536e-02  4.30855011e-07  1.79999964e+00  1.80000043e+00  1.79999979e+00 
 2.39921759e-05  5.16000000e-01  8.21397709e-01  1.42796932e-02  5.79719789e-07  1.79999986e+00  1.79999941e+00  1.79999967e+00 
 2.39931759e-05  5.16000000e-01  8.21397712e-01  1.42795265e-02  4.30577098e-07  1.79999964e+00  1.80000043e+00  1.79999979e+00 
 2.39941759e-05  5.16000000e-01  8.21397712e-01  1.42793662e-02  5.79406497e-07  1.79999986e+00  1.79999941e+00  1.79999967e+00 
 2.39951759e-05  5.16000000e-01  8.21397715e-01  1.42791996e-02  4.30299922e-07  1.79999964e+00  1.80000043e+00  1.79999979e+00 
 2.39961759e-05  5.16000000e-01  8.21397714e-01  1.42790394e-02  5.79094126e-07  1.79999986e+00  1.79999941e+00  1.79999967e+00 
 2.39971759e-05  5.16000000e-01  8.21397718e-01  1.42788729e-02  4.30023513e-07  1.79999964e+00  1.80000043e+00  1.79999979e+00 
 2.39981759e-05  5.16000000e-01  8.21397717e-01  1.42787127e-02  5.78782542e-07  1.79999986e+00  1.79999941e+00  1.79999967e+00 
 2.39991759e-05  5.16000000e-01  8.21397721e-01  1.42785464e-02  4.29747918e-07  1.79999964e+00  1.80000043e+00  1.79999979e+00 
 2.40000000e-05  5.16000000e-01  8.21397720e-01  1.42784150e-02  5.78499120e-07  1.79999986e+00  1.79999941e+00  1.79999967e+00 
 2.39002933e-05  5.47250000e-01  5.24711576e-01  7.42107279e-03  2.16612567e-07  1.67316765e-07  1.30793807e-07  1.56809510e-07 
 2.39012933e-05  5.47250000e-01  5.24711583e-01  7.42101483e-03  2.02949874e-07  1.61139090e-07  1.25669120e-07  1.36663593e-07 
 2.39022933e-05  5.47250000e-01  5.24711590e-01  7.42090966e-03  2.16615572e-07  1.67321049e-07  1.30798635e-07  1.56814164e-07 
 2.39032933e-05  5.47250000e-01  5.24711596e-01  7.42085176e-03  2.02947738e-07  1.61135941e-07  1.25665864e-07  1.36659752e-07 
 2.39042933e-05  5.47250000e-01  5.24711603e-01  7.42074665e-03  2.16618571e-07  1.67325346e-07  1.30803401e-07  1.56818749e-07 
 2.39052933e-05  5.47250000e-01  5.24711610e-01  7.42068879e-03  2.02945517e-07  1.61132769e-07  1.25662639e-07  1.36655957e-07 
 2.39062933e-05  5.47250000e-01  5.24711617e-01  7.42058373e-03  2.16621616e-07  1.67329678e-07  1.30808190e-07  1.56823342e-07 
 2.39072933e-05  5.47250000e-01  5.24711623e-01  7.42052592e-03  2.02943321e-07  1.61129612e-07  1.25659375e-07  1.36652157e-07 
 2.39082933e-05  5.47250000e-01  5.24711630e-01  7.42042091e-03  2.16624649e-07  1.67333961e-07  1.30812989e-07  1.56827903e-07 
 2.39092933e-05  5.47250000e-01  5.24711637e-01  7.42036314e-03  2.02941091e-07  1.61126478e-07  1.25656081e-07  1.36648356e-07 
 2.39102933e-05  5.47250000e-01  5.24711644e-01  7.42025819e-03  2.16627709e-07  1.67338237e-07  1.30817820e-07  1.56832499e-07 
 2.39112933e-05  5.47250000e-01  5.24711650e-01  7.42020047e-03  2.02938857e-07  1.61123317e-07  1.25652790e-07  1.36644550e-07 
 2.39122933e-05  5.47250000e-01  5.24711657e-01  7.42009556e-03  2.16630781e-07  1.67342571e-07  1.30822628e-07  1.56837065e-07 
 2.39132933e-05  5.47250000e-01  5.24711664e-01  7.42003789e-03  2.02936605e-07  1.61120132e-07  1.25649505e-07  1.36640767e-07 
 2.39142933e-05  5.47250000e-01  5.24711671e-01  7.41993305e-03  2.16633829e-07  1.67346874e-07  1.30827436e-07  1.56841625e-07 
 2.39152933e-05  5.47250000e-01  5.24711677e-01  7.41987542e-03  2.02934394e-07  1.61116970e-07  1.25646211e-07  1.36636977e-07 
 2.39162933e-05  5.47250000e-01  5.24711684e-01  7.41977062e-03  2.16636847e-07  1.67351187e-07  1.30832248e-07  1.56846190e-07 
 2.39172933e-05  5.47250000e-01  5.24711691e-01  7.41971304e-03  2.02932221e-07  1.61113806e-07  1.25642929e-07  1.36633177e-07 
 2.39182933e-05  5.47250000e-01  5.24711698e-01  7.41960830e-03  2.16639823e-07  1.67355506e-07  1.30837043e-07  1.56850755e-07 
 2.39192933e-05  5.47250000e-01  5.24711704e-01  7.41955077e-03  2.02930051e-07  1.61110627e-07  1.25639647e-07  1.36629377e-07 
 2.39202933e-05  5.47250000e-01  5.24711711e-01  7.41944608e-03  2.16642826e-07  1.67359794e-07  1.30841822e-07  1.56855349e-07 
 2.39212933e-05  5.47250000e-01  5.24711718e-01  7.41938859e-03  2.02927882e-07  1.61107460e-07  1.25636376e-07  1.36625559e-07 
 2.39222933e-05  5.47250000e-01  5.24711725e-01  7.41928395e-03  2.16645792e-07  1.67364104e-07  1.30846596e-07  1.56859933e-07 
 2.39232933e-05  5.47250000e-01  5.24711731e-01  7.41922651e-03  2.02925711e-07  1.61104297e-07  1.25633137e-07  1.36621741e-07 
 2.39242933e-05  5.47250000e-01  5.24711738e-01  7.41912193e-03  2.16648782e-07  1.67368404e-07  1.30851342e-07  1.56864534e-07 
 2.39252933e-05  5.47250000e-01  5.24711745e-01  7.41906453e-03  2.02923542e-07  1.61101151e-07  1.25629894e-07  1.36617898e-07 
 2.39262933e-05  5.47250000e-01  5.24711752e-01  7.41895999e-03  2.16651769e-07  1.67372669e-07  1.30856072e-07  1.56869123e-07 
 2.39272933e-05  5.47250000e-01  5.24711758e-01  7.41890265e-03  2.02921378e-07  1.61098000e-07  1.25626648e-07  1.36614078e-07 
 2.39282933e-05  5.47250000e-01  5.24711765e-01  7.41879816e-03  2.16654738e-07  1.67376955e-07  1.30860831e-07  1.56873708e-07 
 2.39292933e-05  5.47250000e-01  5.24711772e-01  7.41874086e-03  2.02919198e-07  1.61094858e-07  1.25623413e-07  1.36610258e-07 
 2.39302933e-05  5.47250000e-01  5.24711779e-01  7.41863643e-03  2.16657726e-07  1.67381231e-07  1.30865559e-07  1.56878306e-07 
 2.39312933e-05  5.47250000e-01  5.24711785e-01  7.41857917e-03  2.02917035e-07  1.61091708e-07  1.25620135e-07  1.36606408e-07 
 2.39322933e-05  5.47250000e-01  5.24711792e-01  7.41847480e-03  2.16660686e-07  1.67385501e-07  1.30870335e-07  1.56882917e-07 
 2.39332933e-05  5.47250000e-01  5.24711799e-01  7.41841759e-03  2.02914865e-07  1.61088588e-07  1.25616864e-07  1.36602548e-07 
 2.39342933e-05  5.47250000e-01  5.24711806e-01  7.41831326e-03  2.16663671e-07  1.67389741e-07  1.30875068e-07  1.56887537e-07 
 2.39352933e-05  5.47250000e-01  5.24711812e-01  7.41825610e-03  2.02912694e-07  1.61085465e-07  1.25613636e-07  1.36598714e-07 
 2.39362933e-05  5.47250000e-01  5.24711819e-01  7.41815183e-03  2.16666639e-07  1.67393995e-07  1.30879809e-07  1.56892083e-07 
 2.39372933e-05  5.47250000e-01  5.24711826e-01  7.41809471e-03  2.02910535e-07  1.61082371e-07  1.25610374e-07  1.36594950e-07 
 2.39382933e-05  5.47250000e-01  5.24711833e-01  7.41799049e-03  2.16669572e-07  1.67398209e-07  1.30884524e-07  1.56896615e-07 
 2.39392933e-05  5.47250000e-01  5.24711839e-01  7.41793341e-03  2.02908409e-07  1.61079260e-07  1.25607126e-07  1.36591164e-07 
 2.39402933e-05  5.47250000e-01  5.24711846e-01  7.41782924e-03  2.16672497e-07  1.67402444e-07  1.30889270e-07  1.56901143e-07 
 2.39412933e-05  5.47250000e-01  5.24711853e-01  7.41777222e-03  2.02906243e-07  1.61076162e-07  1.25603837e-07  1.36587389e-07 
 2.39422933e-05  5.47250000e-01  5.24711860e-01  7.41766810e-03  2.16675509e-07  1.67406660e-07  1.30894046e-07  1.56905665e-07 
 2.39432933e-05  5.47250000e-01  5.24711866e-01  7.41761112e-03  2.02904026e-07  1.61073043e-07  1.25600549e-07  1.36583639e-07 
 2.39442933e-05  5.47250000e-01  5.24711873e-01  7.41750705e-03  2.16678522e-07  1.67410913e-07  1.30898789e-07  1.56910161e-07 
 2.39452933e-05  5.47250000e-01  5.24711880e-01  7.41745012e-03  2.02901829e-07  1.61069920e-07  1.25597277e-07  1.36579885e-07 
 2.39462933e-05  5.47250000e-01  5.24711887e-01  7.41734610e-03  2.16681470e-07  1.67415192e-07  1.30903516e-07  1.56914677e-07 
 2.39472933e-05  5.47250000e-01  5.24711893e-01  7.41728921e-03  2.02899686e-07  1.61066745e-07  1.25594042e-07  1.36576118e-07 
 2.39482933e-05  5.47250000e-01  5.24711900e-01  7.41718525e-03  2.16684409e-07  1.67419466e-07  1.30908196e-07  1.56919182e-07 
 2.39492933e-05  5.47250000e-01  5.24711907e-01  7.41712841e-03  2.02897522e-07  1.61063625e-07  1.25590846e-07  1.36572358e-07 
 2.39502933e-05  5.47250000e-01  5.24711914e-01  7.41702450e-03  2.16687379e-07  1.67423692e-07  1.30912844e-07  1.56923673e-07 
 2.39512933e-05  5.47250000e-01  5.24711920e-01  7.41696770e-03  2.02895340e-07  1.61060503e-07  1.25587645e-07  1.36568591e-07 
 2.39522933e-05  5.47250000e-01  5.24711927e-01  7.41686384e-03  2.16690355e-07  1.67427943e-07  1.30917522e-07  1.56928217e-07 
