 time            v(D_latch)      v(Aout)         v(SH_neg)       v(sh_pos)      
 0.00000000e+00  0.00000000e+00  7.22901330e-01  6.05576795e-01  6.72520305e-01 
 1.00000000e-10  0.00000000e+00  7.22901827e-01  6.05576795e-01  6.72520309e-01 
 2.00000000e-10  0.00000000e+00  7.22902643e-01  6.05576796e-01  6.72520310e-01 
 4.00000000e-10  0.00000000e+00  7.22903896e-01  6.05576796e-01  6.72520310e-01 
 8.00000000e-10  0.00000000e+00  7.22904728e-01  6.05576797e-01  6.72520308e-01 
 1.60000000e-09  0.00000000e+00  7.22905120e-01  6.05576797e-01  6.72520307e-01 
 3.20000000e-09  0.00000000e+00  7.22904737e-01  6.05576796e-01  6.72520306e-01 
 6.40000000e-09  0.00000000e+00  7.22903591e-01  6.05576795e-01  6.72520305e-01 
 1.28000000e-08  0.00000000e+00  7.22903921e-01  6.05576795e-01  6.72520305e-01 
 2.28000000e-08  0.00000000e+00  7.22903872e-01  6.05576795e-01  6.72520305e-01 
 3.28000000e-08  0.00000000e+00  7.22903827e-01  6.05576795e-01  6.72520305e-01 
 4.28000000e-08  0.00000000e+00  7.22903901e-01  6.05576795e-01  6.72520305e-01 
 5.28000000e-08  0.00000000e+00  7.22903834e-01  6.05576795e-01  6.72520305e-01 
 6.28000000e-08  0.00000000e+00  7.22903877e-01  6.05576795e-01  6.72520305e-01 
 7.28000000e-08  0.00000000e+00  7.22903864e-01  6.05576795e-01  6.72520305e-01 
 8.28000000e-08  0.00000000e+00  7.22903848e-01  6.05576795e-01  6.72520305e-01 
 9.28000000e-08  0.00000000e+00  7.22903886e-01  6.05576795e-01  6.72520305e-01 
 1.00000000e-07  0.00000000e+00  7.22903833e-01  6.05576795e-01  6.72520305e-01 
 1.01000000e-07  0.00000000e+00  7.22903034e-01  6.05579788e-01  6.72517232e-01 
 1.03000000e-07  0.00000000e+00  7.22901424e-01  6.05581640e-01  6.72514918e-01 
 1.07000000e-07  0.00000000e+00  7.22900888e-01  6.05580833e-01  6.72515308e-01 
 1.15000000e-07  0.00000000e+00  7.22901222e-01  6.05582152e-01  6.72513881e-01 
 1.25000000e-07  0.00000000e+00  7.22903605e-01  6.05575543e-01  6.72521230e-01 
 1.35000000e-07  0.00000000e+00  7.23266520e-01  6.04869539e-01  6.73327523e-01 
 1.45000000e-07  0.00000000e+00  7.97699746e-01  5.23680376e-01  7.93100231e-01 
 1.46250000e-07  0.00000000e+00  8.17034344e-01  5.12436279e-01  8.16843645e-01 
 1.48750000e-07  0.00000000e+00  8.53046399e-01  5.00470424e-01  8.57828220e-01 
 1.51046046e-07  0.00000000e+00  8.77801279e-01  4.99638705e-01  8.81487211e-01 
 1.53650153e-07  0.00000000e+00  8.95561201e-01  4.99961291e-01  9.01472581e-01 
 1.58022231e-07  0.00000000e+00  9.18465544e-01  5.00031063e-01  9.26072741e-01 
 1.64393660e-07  0.00000000e+00  9.41318188e-01  4.99930260e-01  9.49783047e-01 
 1.74393660e-07  0.00000000e+00  9.62080582e-01  5.00063112e-01  9.72211227e-01 
 1.84393660e-07  0.00000000e+00  9.73880996e-01  4.99939778e-01  9.84256880e-01 
 1.94393660e-07  0.00000000e+00  9.80004978e-01  5.00060007e-01  9.91115998e-01 
 2.00000000e-07  0.00000000e+00  9.82493862e-01  4.99945307e-01  9.93416338e-01 
 2.01000000e-07  0.00000000e+00  9.82741948e-01  4.99998061e-01  9.93792529e-01 
 2.03000000e-07  0.00000000e+00  9.83311222e-01  5.00002515e-01  9.94437406e-01 
 2.07000000e-07  0.00000000e+00  9.84363007e-01  4.99999605e-01  9.95532715e-01 
 2.15000000e-07  0.00000000e+00  9.85870834e-01  5.00002174e-01  9.97135103e-01 
 2.25000000e-07  0.00000000e+00  9.87039660e-01  4.99999699e-01  9.98361853e-01 
 2.35000000e-07  0.00000000e+00  9.87698127e-01  5.00002125e-01  9.99064155e-01 
 2.45000000e-07  0.00000000e+00  9.88083081e-01  4.99999738e-01  9.99463898e-01 
 2.55000000e-07  0.00000000e+00  9.88295400e-01  5.00002093e-01  9.99694147e-01 
 2.65000000e-07  0.00000000e+00  9.88424765e-01  4.99999765e-01  9.99824184e-01 
 2.75000000e-07  0.00000000e+00  9.88491308e-01  5.00002069e-01  9.99900224e-01 
 2.85000000e-07  0.00000000e+00  9.88537061e-01  4.99999787e-01  9.99942080e-01 
 2.95000000e-07  0.00000000e+00  9.88556023e-01  5.00002048e-01  9.99967666e-01 
 3.05000000e-07  0.00000000e+00  9.88574245e-01  4.99999807e-01  9.99980672e-01 
 3.15000000e-07  0.00000000e+00  9.88577855e-01  5.00002029e-01  9.99989739e-01 
 3.25000000e-07  0.00000000e+00  9.88586803e-01  4.99999826e-01  9.99993308e-01 
 3.35000000e-07  0.00000000e+00  9.88585675e-01  5.00002010e-01  9.99996961e-01 
 3.45000000e-07  0.00000000e+00  9.88591289e-01  4.99999845e-01  9.99997447e-01 
 3.55000000e-07  0.00000000e+00  9.88588914e-01  5.00001995e-01  9.99999322e-01 
 3.65000000e-07  0.00000000e+00  9.88593133e-01  4.99999862e-01  9.99998802e-01 
 3.75000000e-07  0.00000000e+00  9.88590638e-01  5.00001977e-01  1.00000009e+00 
 3.85000000e-07  0.00000000e+00  9.88594134e-01  4.99999880e-01  9.99999248e-01 
 3.95000000e-07  0.00000000e+00  9.88591849e-01  5.00001958e-01  1.00000034e+00 
 4.05000000e-07  0.00000000e+00  9.88594873e-01  4.99999899e-01  9.99999398e-01 
 4.15000000e-07  0.00000000e+00  9.88592876e-01  5.00001940e-01  1.00000042e+00 
 4.25000000e-07  0.00000000e+00  9.88595541e-01  4.99999917e-01  9.99999450e-01 
 4.35000000e-07  0.00000000e+00  9.88593827e-01  5.00001922e-01  1.00000044e+00 
 4.45000000e-07  0.00000000e+00  9.88596204e-01  4.99999934e-01  9.99999470e-01 
 4.55000000e-07  0.00000000e+00  9.88594739e-01  5.00001905e-01  1.00000044e+00 
 4.65000000e-07  0.00000000e+00  9.88596876e-01  4.99999952e-01  9.99999480e-01 
 4.75000000e-07  0.00000000e+00  9.88595627e-01  5.00001887e-01  1.00000044e+00 
 4.85000000e-07  0.00000000e+00  9.88597561e-01  4.99999969e-01  9.99999487e-01 
 4.95000000e-07  0.00000000e+00  9.88596495e-01  5.00001870e-01  1.00000044e+00 
 5.05000000e-07  0.00000000e+00  9.88598259e-01  4.99999986e-01  9.99999493e-01 
 5.15000000e-07  0.00000000e+00  9.88597351e-01  5.00001853e-01  1.00000043e+00 
 5.25000000e-07  0.00000000e+00  9.88598969e-01  5.00000003e-01  9.99999498e-01 
 5.35000000e-07  0.00000000e+00  9.88598194e-01  5.00001837e-01  1.00000043e+00 
 5.45000000e-07  0.00000000e+00  9.88599686e-01  5.00000019e-01  9.99999503e-01 
 5.55000000e-07  0.00000000e+00  9.88599028e-01  5.00001820e-01  1.00000042e+00 
 5.65000000e-07  0.00000000e+00  9.88600414e-01  5.00000035e-01  9.99999508e-01 
 5.75000000e-07  0.00000000e+00  9.88599854e-01  5.00001804e-01  1.00000042e+00 
 5.85000000e-07  0.00000000e+00  9.88601146e-01  5.00000052e-01  9.99999513e-01 
 5.95000000e-07  0.00000000e+00  9.88600672e-01  5.00001788e-01  1.00000041e+00 
 6.05000000e-07  0.00000000e+00  9.88601884e-01  5.00000067e-01  9.99999518e-01 
 6.15000000e-07  0.00000000e+00  9.88601485e-01  5.00001772e-01  1.00000041e+00 
 6.25000000e-07  0.00000000e+00  9.88602628e-01  5.00000083e-01  9.99999523e-01 
 6.35000000e-07  0.00000000e+00  9.88602293e-01  5.00001757e-01  1.00000040e+00 
 6.45000000e-07  0.00000000e+00  9.88603376e-01  5.00000098e-01  9.99999528e-01 
 6.55000000e-07  0.00000000e+00  9.88603099e-01  5.00001742e-01  1.00000040e+00 
 6.65000000e-07  0.00000000e+00  9.88604125e-01  5.00000115e-01  9.99999532e-01 
 6.75000000e-07  0.00000000e+00  9.88603896e-01  5.00001727e-01  1.00000039e+00 
 6.85000000e-07  0.00000000e+00  9.88604875e-01  5.00000130e-01  9.99999537e-01 
 6.95000000e-07  0.00000000e+00  9.88604692e-01  5.00001712e-01  1.00000039e+00 
 7.05000000e-07  0.00000000e+00  9.88605628e-01  5.00000144e-01  9.99999541e-01 
 7.15000000e-07  0.00000000e+00  9.88605485e-01  5.00001697e-01  1.00000038e+00 
 7.25000000e-07  0.00000000e+00  9.88606383e-01  5.00000158e-01  9.99999546e-01 
 7.35000000e-07  0.00000000e+00  9.88606276e-01  5.00001683e-01  1.00000038e+00 
 7.45000000e-07  0.00000000e+00  9.88607140e-01  5.00000173e-01  9.99999552e-01 
 7.55000000e-07  0.00000000e+00  9.88607065e-01  5.00001669e-01  1.00000037e+00 
 7.65000000e-07  0.00000000e+00  9.88607900e-01  5.00000186e-01  9.99999557e-01 
 7.75000000e-07  0.00000000e+00  9.88607853e-01  5.00001655e-01  1.00000037e+00 
 7.85000000e-07  0.00000000e+00  9.88608660e-01  5.00000200e-01  9.99999562e-01 
 7.95000000e-07  0.00000000e+00  9.88608638e-01  5.00001642e-01  1.00000036e+00 
 8.05000000e-07  0.00000000e+00  9.88609419e-01  5.00000214e-01  9.99999567e-01 
 8.15000000e-07  0.00000000e+00  9.88609422e-01  5.00001628e-01  1.00000036e+00 
 8.25000000e-07  0.00000000e+00  9.88610180e-01  5.00000227e-01  9.99999572e-01 
 8.35000000e-07  0.00000000e+00  9.88610205e-01  5.00001615e-01  1.00000035e+00 
 8.45000000e-07  0.00000000e+00  9.88610941e-01  5.00000240e-01  9.99999577e-01 
 8.55000000e-07  0.00000000e+00  9.88610986e-01  5.00001602e-01  1.00000035e+00 
 8.65000000e-07  0.00000000e+00  9.88611703e-01  5.00000253e-01  9.99999582e-01 
 8.75000000e-07  0.00000000e+00  9.88611769e-01  5.00001589e-01  1.00000034e+00 
 8.85000000e-07  0.00000000e+00  9.88612465e-01  5.00000265e-01  9.99999586e-01 
 8.95000000e-07  0.00000000e+00  9.88612548e-01  5.00001577e-01  1.00000034e+00 
 9.05000000e-07  0.00000000e+00  9.88613227e-01  5.00000278e-01  9.99999591e-01 
 9.15000000e-07  0.00000000e+00  9.88613328e-01  5.00001564e-01  1.00000033e+00 
 9.25000000e-07  0.00000000e+00  9.88613989e-01  5.00000290e-01  9.99999596e-01 
 9.35000000e-07  0.00000000e+00  9.88614106e-01  5.00001552e-01  1.00000033e+00 
 9.45000000e-07  0.00000000e+00  9.88614751e-01  5.00000302e-01  9.99999601e-01 
 9.55000000e-07  0.00000000e+00  9.88614885e-01  5.00001540e-01  1.00000033e+00 
 9.65000000e-07  0.00000000e+00  9.88615515e-01  5.00000313e-01  9.99999605e-01 
 9.75000000e-07  0.00000000e+00  9.88615663e-01  5.00001528e-01  1.00000032e+00 
 9.85000000e-07  0.00000000e+00  9.88616277e-01  5.00000325e-01  9.99999610e-01 
 9.95000000e-07  0.00000000e+00  9.88616440e-01  5.00001517e-01  1.00000032e+00 
 1.00000000e-06  0.00000000e+00  9.88616843e-01  5.00000341e-01  9.99999617e-01 
 1.00100000e-06  0.00000000e+00  9.88881149e-01  4.99993335e-01  9.99991181e-01 
 1.00300000e-06  0.00000000e+00  9.89378892e-01  4.99984112e-01  9.99975343e-01 
 1.00700000e-06  0.00000000e+00  9.89476120e-01  4.99979278e-01  9.99950703e-01 
 1.01500000e-06  0.00000000e+00  9.89093275e-01  4.99968863e-01  9.99922760e-01 
 1.02500000e-06  0.00000000e+00  9.89015638e-01  4.99930886e-01  9.99909109e-01 
 1.03500000e-06  0.00000000e+00  9.88777281e-01  4.99867672e-01  9.99904801e-01 
 1.04500000e-06  0.00000000e+00  9.88872660e-01  4.99812689e-01  9.99911776e-01 
 1.05500000e-06  0.00000000e+00  9.88934648e-01  4.99852658e-01  1.00008916e+00 
 1.06500000e-06  0.00000000e+00  9.89022615e-01  4.99856327e-01  1.00008855e+00 
 1.07244486e-06  0.00000000e+00  9.88928144e-01  4.99829042e-01  1.00005623e+00 
 1.08047220e-06  0.00000000e+00  9.88939047e-01  4.99799496e-01  1.00002133e+00 
 1.09047220e-06  0.00000000e+00  9.88870574e-01  4.99762072e-01  9.99977376e-01 
 1.10000000e-06  0.00000000e+00  9.88850003e-01  4.99726649e-01  9.99935838e-01 
 1.10100000e-06  0.00000000e+00  9.88757518e-01  4.99727213e-01  9.99935747e-01 
 1.10300000e-06  0.00000000e+00  9.88583615e-01  4.99728434e-01  9.99935675e-01 
 1.10700000e-06  0.00000000e+00  9.88529076e-01  4.99730898e-01  9.99935626e-01 
 1.11500000e-06  0.00000000e+00  9.88589526e-01  4.99735879e-01  9.99935584e-01 
 1.12500000e-06  0.00000000e+00  9.88537911e-01  4.99742166e-01  9.99935508e-01 
 1.13500000e-06  0.00000000e+00  9.88581352e-01  4.99748417e-01  9.99935467e-01 
 1.14500000e-06  0.00000000e+00  9.88547366e-01  4.99754610e-01  9.99935415e-01 
 1.15500000e-06  0.00000000e+00  9.88574007e-01  4.99760735e-01  9.99935382e-01 
 1.16500000e-06  0.00000000e+00  9.88555005e-01  4.99766800e-01  9.99935344e-01 
 1.17500000e-06  0.00000000e+00  9.88568985e-01  4.99772798e-01  9.99935316e-01 
 1.18500000e-06  0.00000000e+00  9.88560254e-01  4.99778737e-01  9.99935288e-01 
 1.19500000e-06  0.00000000e+00  9.88566240e-01  4.99784611e-01  9.99935262e-01 
 1.20500000e-06  0.00000000e+00  9.88563511e-01  4.99790426e-01  9.99935240e-01 
 1.21500000e-06  0.00000000e+00  9.88565184e-01  4.99796178e-01  9.99935216e-01 
 1.22500000e-06  0.00000000e+00  9.88565417e-01  4.99801873e-01  9.99935197e-01 
 1.23500000e-06  0.00000000e+00  9.88565182e-01  4.99807505e-01  9.99935175e-01 
 1.24500000e-06  0.00000000e+00  9.88566543e-01  4.99813082e-01  9.99935157e-01 
 1.25500000e-06  0.00000000e+00  9.88565742e-01  4.99818597e-01  9.99935136e-01 
 1.26500000e-06  0.00000000e+00  9.88567289e-01  4.99824058e-01  9.99935119e-01 
 1.27500000e-06  0.00000000e+00  9.88566548e-01  4.99829459e-01  9.99935098e-01 
 1.28500000e-06  0.00000000e+00  9.88567894e-01  4.99834807e-01  9.99935082e-01 
 1.29500000e-06  0.00000000e+00  9.88567424e-01  4.99840096e-01  9.99935062e-01 
 1.30500000e-06  0.00000000e+00  9.88568479e-01  4.99845332e-01  9.99935045e-01 
 1.31500000e-06  0.00000000e+00  9.88568289e-01  4.99850512e-01  9.99935026e-01 
 1.32500000e-06  0.00000000e+00  9.88569090e-01  4.99855639e-01  9.99935009e-01 
 1.33500000e-06  0.00000000e+00  9.88569117e-01  4.99860711e-01  9.99934990e-01 
 1.34500000e-06  0.00000000e+00  9.88569741e-01  4.99865732e-01  9.99934974e-01 
 1.35500000e-06  0.00000000e+00  9.88569908e-01  4.99870699e-01  9.99934955e-01 
 1.36500000e-06  0.00000000e+00  9.88570424e-01  4.99875616e-01  9.99934938e-01 
 1.37500000e-06  0.00000000e+00  9.88570670e-01  4.99880480e-01  9.99934919e-01 
 1.38500000e-06  0.00000000e+00  9.88571130e-01  4.99885295e-01  9.99934903e-01 
 1.39500000e-06  0.00000000e+00  9.88571416e-01  4.99890058e-01  9.99934884e-01 
 1.40500000e-06  0.00000000e+00  9.88571849e-01  4.99894773e-01  9.99934868e-01 
 1.41500000e-06  0.00000000e+00  9.88572151e-01  4.99899437e-01  9.99934849e-01 
 1.42500000e-06  0.00000000e+00  9.88572572e-01  4.99904054e-01  9.99934833e-01 
 1.43500000e-06  0.00000000e+00  9.88572879e-01  4.99908621e-01  9.99934814e-01 
 1.44500000e-06  0.00000000e+00  9.88573298e-01  4.99913143e-01  9.99934798e-01 
 1.45500000e-06  0.00000000e+00  9.88573608e-01  4.99917615e-01  9.99934779e-01 
 1.46500000e-06  0.00000000e+00  9.88574027e-01  4.99922043e-01  9.99934762e-01 
 1.47500000e-06  0.00000000e+00  9.88574336e-01  4.99926423e-01  9.99934744e-01 
 1.48500000e-06  0.00000000e+00  9.88574754e-01  4.99930759e-01  9.99934727e-01 
 1.49500000e-06  0.00000000e+00  9.88575065e-01  4.99935048e-01  9.99934708e-01 
 1.50500000e-06  0.00000000e+00  9.88575481e-01  4.99939294e-01  9.99934692e-01 
 1.51500000e-06  0.00000000e+00  9.88575793e-01  4.99943494e-01  9.99934673e-01 
 1.52500000e-06  0.00000000e+00  9.88576206e-01  4.99947652e-01  9.99934657e-01 
 1.53500000e-06  0.00000000e+00  9.88576521e-01  4.99951765e-01  9.99934638e-01 
 1.54500000e-06  0.00000000e+00  9.88576931e-01  4.99955836e-01  9.99934622e-01 
 1.55500000e-06  0.00000000e+00  9.88577248e-01  4.99959864e-01  9.99934603e-01 
 1.56500000e-06  0.00000000e+00  9.88577654e-01  4.99963851e-01  9.99934587e-01 
 1.57500000e-06  0.00000000e+00  9.88577974e-01  4.99967796e-01  9.99934568e-01 
 1.58500000e-06  0.00000000e+00  9.88578377e-01  4.99971700e-01  9.99934552e-01 
 1.59500000e-06  0.00000000e+00  9.88578700e-01  4.99975563e-01  9.99934533e-01 
 1.60500000e-06  0.00000000e+00  9.88579101e-01  4.99979387e-01  9.99934517e-01 
 1.61500000e-06  0.00000000e+00  9.88579426e-01  4.99983169e-01  9.99934498e-01 
 1.62500000e-06  0.00000000e+00  9.88579823e-01  4.99986914e-01  9.99934481e-01 
 1.63500000e-06  0.00000000e+00  9.88580152e-01  4.99990618e-01  9.99934463e-01 
 1.64500000e-06  0.00000000e+00  9.88580547e-01  4.99994285e-01  9.99934446e-01 
 1.65500000e-06  0.00000000e+00  9.88580877e-01  4.99997912e-01  9.99934428e-01 
 1.66500000e-06  0.00000000e+00  9.88581270e-01  5.00001503e-01  9.99934411e-01 
 1.67500000e-06  0.00000000e+00  9.88581603e-01  5.00005056e-01  9.99934393e-01 
 1.68500000e-06  0.00000000e+00  9.88581993e-01  5.00008572e-01  9.99934376e-01 
 1.69500000e-06  0.00000000e+00  9.88582326e-01  5.00012051e-01  9.99934357e-01 
 1.70500000e-06  0.00000000e+00  9.88582714e-01  5.00015495e-01  9.99934341e-01 
 1.71500000e-06  0.00000000e+00  9.88583049e-01  5.00018902e-01  9.99934322e-01 
 1.72500000e-06  0.00000000e+00  9.88583435e-01  5.00022274e-01  9.99934306e-01 
 1.73500000e-06  0.00000000e+00  9.88583772e-01  5.00025611e-01  9.99934287e-01 
 1.74500000e-06  0.00000000e+00  9.88584156e-01  5.00028914e-01  9.99934270e-01 
 1.75500000e-06  0.00000000e+00  9.88584495e-01  5.00032181e-01  9.99934252e-01 
 1.76500000e-06  0.00000000e+00  9.88584878e-01  5.00035415e-01  9.99934235e-01 
 1.77500000e-06  0.00000000e+00  9.88585218e-01  5.00038615e-01  9.99934217e-01 
 1.78500000e-06  0.00000000e+00  9.88585599e-01  5.00041783e-01  9.99934200e-01 
 1.79500000e-06  0.00000000e+00  9.88585941e-01  5.00044916e-01  9.99934182e-01 
 1.80500000e-06  0.00000000e+00  9.88586321e-01  5.00048018e-01  9.99934165e-01 
 1.81500000e-06  0.00000000e+00  9.88586662e-01  5.00051087e-01  9.99934146e-01 
 1.82500000e-06  0.00000000e+00  9.88587040e-01  5.00054125e-01  9.99934130e-01 
 1.83500000e-06  0.00000000e+00  9.88587382e-01  5.00057130e-01  9.99934111e-01 
 1.84500000e-06  0.00000000e+00  9.88587758e-01  5.00060106e-01  9.99934095e-01 
 1.85500000e-06  0.00000000e+00  9.88588102e-01  5.00063049e-01  9.99934076e-01 
 1.86500000e-06  0.00000000e+00  9.88588478e-01  5.00065963e-01  9.99934060e-01 
 1.87500000e-06  0.00000000e+00  9.88588823e-01  5.00068845e-01  9.99934041e-01 
 1.88500000e-06  0.00000000e+00  9.88589198e-01  5.00071699e-01  9.99934025e-01 
 1.89500000e-06  0.00000000e+00  9.88589544e-01  5.00074521e-01  9.99934006e-01 
 1.90500000e-06  0.00000000e+00  9.88589918e-01  5.00077316e-01  9.99933989e-01 
 1.91500000e-06  0.00000000e+00  9.88590265e-01  5.00080080e-01  9.99933971e-01 
 1.92500000e-06  0.00000000e+00  9.88590638e-01  5.00082818e-01  9.99933954e-01 
 1.93500000e-06  0.00000000e+00  9.88590984e-01  5.00085525e-01  9.99933936e-01 
 1.94500000e-06  0.00000000e+00  9.88591356e-01  5.00088206e-01  9.99933919e-01 
 1.95500000e-06  0.00000000e+00  9.88591702e-01  5.00090857e-01  9.99933901e-01 
 1.96500000e-06  0.00000000e+00  9.88592073e-01  5.00093483e-01  9.99933884e-01 
 1.97500000e-06  0.00000000e+00  9.88592420e-01  5.00096079e-01  9.99933866e-01 
 1.98500000e-06  0.00000000e+00  9.88592789e-01  5.00098651e-01  9.99933849e-01 
 1.99500000e-06  0.00000000e+00  9.88593136e-01  5.00101194e-01  9.99933831e-01 
 2.00500000e-06  0.00000000e+00  9.88593505e-01  5.00103712e-01  9.99933814e-01 
 2.01500000e-06  0.00000000e+00  9.88593854e-01  5.00106203e-01  9.99933795e-01 
 2.02500000e-06  0.00000000e+00  9.88594223e-01  5.00108670e-01  9.99933779e-01 
 2.03500000e-06  0.00000000e+00  9.88594571e-01  5.00111109e-01  9.99933760e-01 
 2.04500000e-06  0.00000000e+00  9.88594938e-01  5.00113525e-01  9.99933744e-01 
 2.05500000e-06  0.00000000e+00  9.88595286e-01  5.00115914e-01  9.99933725e-01 
 2.06500000e-06  0.00000000e+00  9.88595654e-01  5.00118280e-01  9.99933708e-01 
 2.07500000e-06  0.00000000e+00  9.88596003e-01  5.00120620e-01  9.99933690e-01 
 2.08500000e-06  0.00000000e+00  9.88596370e-01  5.00122938e-01  9.99933673e-01 
 2.09500000e-06  0.00000000e+00  9.88596719e-01  5.00125230e-01  9.99933655e-01 
 2.10500000e-06  0.00000000e+00  9.88597085e-01  5.00127499e-01  9.99933638e-01 
 2.11500000e-06  0.00000000e+00  9.88597434e-01  5.00129744e-01  9.99933620e-01 
 2.12500000e-06  0.00000000e+00  9.88597798e-01  5.00131967e-01  9.99933603e-01 
 2.13500000e-06  0.00000000e+00  9.88598147e-01  5.00134166e-01  9.99933585e-01 
 2.14500000e-06  0.00000000e+00  9.88598512e-01  5.00136343e-01  9.99933568e-01 
 2.15500000e-06  0.00000000e+00  9.88598861e-01  5.00138496e-01  9.99933549e-01 
 2.16500000e-06  0.00000000e+00  9.88599225e-01  5.00140629e-01  9.99933533e-01 
 2.17500000e-06  0.00000000e+00  9.88599574e-01  5.00142738e-01  9.99933514e-01 
 2.18500000e-06  0.00000000e+00  9.88599937e-01  5.00144827e-01  9.99933497e-01 
 2.19500000e-06  0.00000000e+00  9.88600287e-01  5.00146893e-01  9.99933479e-01 
 2.20500000e-06  0.00000000e+00  9.88600651e-01  5.00148939e-01  9.99933462e-01 
 2.21500000e-06  0.00000000e+00  9.88601001e-01  5.00150962e-01  9.99933444e-01 
